
**** 11/20/23 17:27:44 ******* PSpice Lite (March 2016) ******* ID# 10813 ****

 ** Profile: "SCHEMATIC1-Sim"  [ C:\Users\oscar\Documents\Circuitos\Filtros\Sim\Comparador-PSpiceFiles\SCHEMATIC1\Sim.sim ] 


 ****     CIRCUIT DESCRIPTION


******************************************************************************




** Creating circuit file "Sim.cir" 
** WARNING: THIS AUTOMATICALLY GENERATED FILE MAY BE OVERWRITTEN BY SUBSEQUENT SIMULATIONS

*Libraries: 
* Profile Libraries :
* Local Libraries :
* From [PSPICE NETLIST] section of C:\Users\oscar\AppData\Roaming\SPB_Data\cdssetup\OrCAD_PSpice\17.2.0\PSpice.ini file:
.lib "nomd.lib" 

*Analysis directives: 
.TRAN  0 333u 0 33n 
.OPTIONS ADVCONV
.PROBE64 V(alias(*)) I(alias(*)) W(alias(*)) D(alias(*)) NOISE(alias(*)) 
.INC "..\SCHEMATIC1.net" 



**** INCLUDING SCHEMATIC1.net ****
* source COMPARADOR
X_U1A         N00252 N00265 N00319 0 N00293 LM324
V_V1         N00252 0  AC 1
+SIN 0 0.5 9000 0 0 0
R_R1         N00351 N00265  8.4k TC=0,0 
R_R2         0 N00265  500 TC=0,0 
R_R3         0 N00293  1k TC=0,0 
V_V2         N00319 0 9
V_V3         N00351 0 9

**** RESUMING Sim.cir ****
.END

**** 11/20/23 17:27:44 ******* PSpice Lite (March 2016) ******* ID# 10813 ****

 ** Profile: "SCHEMATIC1-Sim"  [ C:\Users\oscar\Documents\Circuitos\Filtros\Sim\Comparador-PSpiceFiles\SCHEMATIC1\Sim.sim ] 


 ****     Diode MODEL PARAMETERS


******************************************************************************




               X_U1A.dx        X_U1A.dy        
          IS  800.000000E-18  800.000000E-18 
          RS    1               1.000000E-03 
         CJO                   10.000000E-12 


**** 11/20/23 17:27:44 ******* PSpice Lite (March 2016) ******* ID# 10813 ****

 ** Profile: "SCHEMATIC1-Sim"  [ C:\Users\oscar\Documents\Circuitos\Filtros\Sim\Comparador-PSpiceFiles\SCHEMATIC1\Sim.sim ] 


 ****     BJT MODEL PARAMETERS


******************************************************************************




               X_U1A.qx        
               PNP             
       LEVEL    1            
          IS  800.000000E-18 
          BF  166.7          
          NF    1            
          BR    1            
          NR    1            
         ISS    0            
          RE    0            
          RC    0            
         CJE    0            
         VJE     .75         
         CJC    0            
         VJC     .75         
         MJC     .33         
        XCJC    1            
         CJS    0            
         VJS     .75         
          KF    0            
          AF    1            
          CN    2.2          
           D     .52         


**** 11/20/23 17:27:44 ******* PSpice Lite (March 2016) ******* ID# 10813 ****

 ** Profile: "SCHEMATIC1-Sim"  [ C:\Users\oscar\Documents\Circuitos\Filtros\Sim\Comparador-PSpiceFiles\SCHEMATIC1\Sim.sim ] 


 ****     Current Controlled Switch MODEL PARAMETERS


******************************************************************************




               X_U1A.sw2       X_U1A.sw1       X_U1A.sw3       X_U1A.sw4       
         RON    1               1               1               1            
        ROFF   10.000000E+06   10.000000E+06   10.000000E+06   10.000000E+06 
         ION    0              -1.000000E-06   -1.000000E-06    0            
        IOFF   -1.000000E-06    0               0              -1.000000E-06 


**** 11/20/23 17:27:44 ******* PSpice Lite (March 2016) ******* ID# 10813 ****

 ** Profile: "SCHEMATIC1-Sim"  [ C:\Users\oscar\Documents\Circuitos\Filtros\Sim\Comparador-PSpiceFiles\SCHEMATIC1\Sim.sim ] 


 ****     INITIAL TRANSIENT SOLUTION       TEMPERATURE =   27.000 DEG C


******************************************************************************



 NODE   VOLTAGE     NODE   VOLTAGE     NODE   VOLTAGE     NODE   VOLTAGE


(N00252)    0.0000 (N00265)     .5056 (N00293)     .0057 (N00319)    9.0000     

(N00351)    9.0000 (X_U1A.6)    1.5059                   (X_U1A.7)   -2.0248    

(X_U1A.8)   -2.0248                   (X_U1A.9)    0.0000                       

(X_U1A.a)     .0406                   (X_U1A.b)     .0406                       

(X_U1A.10)     .6407                  (X_U1A.11) 6.872E-09                      

(X_U1A.12)     .0811                  (X_U1A.13)     .6407                      

(X_U1A.14)     .6123                  (X_U1A.53)    7.5000                      

(X_U1A.54)     .8220                  (X_U1A.90)  -40.6100                      

(X_U1A.91)   40.0000                  (X_U1A.92)  -40.0000                      

(X_U1A.99)    4.5000                  




    VOLTAGE SOURCE CURRENTS
    NAME         CURRENT

    V_V1         9.172E-08
    V_V2        -1.007E-03
    V_V3        -1.011E-03
    X_U1A.vb     1.506E-05
    X_U1A.vc     7.495E-12
    X_U1A.ve    -4.062E-02
    X_U1A.vlim  -4.061E-02
    X_U1A.vlp   -8.061E-11
    X_U1A.vln    1.393E-05

    TOTAL POWER DISSIPATION   5.10E-02  WATTS



          JOB CONCLUDED

**** 11/20/23 17:27:44 ******* PSpice Lite (March 2016) ******* ID# 10813 ****

 ** Profile: "SCHEMATIC1-Sim"  [ C:\Users\oscar\Documents\Circuitos\Filtros\Sim\Comparador-PSpiceFiles\SCHEMATIC1\Sim.sim ] 


 ****     JOB STATISTICS SUMMARY


******************************************************************************



  Total job time (using Solver 1)   =         .94
